
**** 11/16/15 21:15:38 ****** PSpice Lite (October 2012) ****** ID# 10813 ****

 Operational Amplifier Model


 ****     CIRCUIT DESCRIPTION


******************************************************************************



**      CIRCUIT DESCRIPTION**
*POWER SUPPLY*
Vin-diff 6 0 SIN(0 5m 1k 0 0)
Vcm 5 0 1
EV1 1 5 6 0 0.5
EV2 5 2 6 0 0.5



*ELEMENTS*
X1 1 2 3 OPAMP
RL 3 0 1K
R1 6 0 1K


**ANALYSIS REQUESTS**
.TRAN 1u 1m 0 1u

**OUTPUT REQUEST**
.PLOT TRAN V(1,0) V(6,0)
.PROBE



*             non-inverting input
*             | inverting input
*             | | output
*             | | |
.SUBCKT OPAMP 1 2 3


*CIRCUIT DESCRIPTION

*SOURCE
EV3 4 0 1 2 10K
Rin 1 2 1MEG
Rout 4 3 50


.ENDS OPAMP

.END

**** 11/16/15 21:15:38 ****** PSpice Lite (October 2012) ****** ID# 10813 ****

 Operational Amplifier Model


 ****     INITIAL TRANSIENT SOLUTION       TEMPERATURE =   27.000 DEG C


******************************************************************************



 NODE   VOLTAGE     NODE   VOLTAGE     NODE   VOLTAGE     NODE   VOLTAGE


(    1)    1.0000  (    2)    1.0000  (    3)    0.0000  (    5)    1.0000      

(    6)    0.0000  ( X1.4)    0.0000  




    VOLTAGE SOURCE CURRENTS
    NAME         CURRENT

    Vin-diff     0.000E+00
    Vcm          0.000E+00

    TOTAL POWER DISSIPATION   0.00E+00  WATTS


**** 11/16/15 21:15:38 ****** PSpice Lite (October 2012) ****** ID# 10813 ****

 Operational Amplifier Model


 ****     TRANSIENT ANALYSIS               TEMPERATURE =   27.000 DEG C


******************************************************************************



 LEGEND:

*: V(1,0)
+: V(6,0)

  TIME        V(1,0)      
(*)----------    9.9600E-01   9.9800E-01   1.0000E+00   1.0020E+00   1.0040E+00
(+)----------   -1.0000E-02  -5.0000E-03   0.0000E+00   5.0000E-03   1.0000E-02
                       _ _ _ _ _ _ _ _ _ _ _ _ _ _ _ _ _ _ _ _ _ _ _ _ _ _ _
  0.000E+00  1.000E+00 .            .            X            .            .
  1.000E-06  1.000E+00 .            .            X            .            .
  2.000E-06  1.000E+00 .            .            X            .            .
  3.000E-06  1.000E+00 .            .            X            .            .
  4.000E-06  1.000E+00 .            .            X            .            .
  5.000E-06  1.000E+00 .            .            +*           .            .
  6.000E-06  1.000E+00 .            .            +*           .            .
  7.000E-06  1.000E+00 .            .            .X           .            .
  8.000E-06  1.000E+00 .            .            .X           .            .
  9.000E-06  1.000E+00 .            .            .X           .            .
  1.000E-05  1.000E+00 .            .            .X           .            .
  1.100E-05  1.000E+00 .            .            .X           .            .
  1.200E-05  1.000E+00 .            .            .X           .            .
  1.300E-05  1.000E+00 .            .            .X           .            .
  1.400E-05  1.000E+00 .            .            .X           .            .
  1.500E-05  1.000E+00 .            .            .+*          .            .
  1.600E-05  1.000E+00 .            .            .+*          .            .
  1.700E-05  1.000E+00 .            .            .+*          .            .
  1.800E-05  1.000E+00 .            .            .+*          .            .
  1.900E-05  1.000E+00 .            .            . X          .            .
  2.000E-05  1.000E+00 .            .            . X          .            .
  2.100E-05  1.000E+00 .            .            . X          .            .
  2.200E-05  1.000E+00 .            .            . X          .            .
  2.300E-05  1.000E+00 .            .            . X          .            .
  2.400E-05  1.000E+00 .            .            . X          .            .
  2.500E-05  1.000E+00 .            .            . +*         .            .
  2.600E-05  1.000E+00 .            .            . +*         .            .
  2.700E-05  1.000E+00 .            .            . +*         .            .
  2.800E-05  1.000E+00 .            .            . +*         .            .
  2.900E-05  1.000E+00 .            .            . +*         .            .
  3.000E-05  1.000E+00 .            .            . +*         .            .
  3.100E-05  1.000E+00 .            .            .  X         .            .
  3.200E-05  1.001E+00 .            .            .  X         .            .
  3.300E-05  1.001E+00 .            .            .  X         .            .
  3.400E-05  1.001E+00 .            .            .  X         .            .
  3.500E-05  1.001E+00 .            .            .  +*        .            .
  3.600E-05  1.001E+00 .            .            .  +*        .            .
  3.700E-05  1.001E+00 .            .            .  +*        .            .
  3.800E-05  1.001E+00 .            .            .  +*        .            .
  3.900E-05  1.001E+00 .            .            .  +*        .            .
  4.000E-05  1.001E+00 .            .            .  +*        .            .
  4.100E-05  1.001E+00 .            .            .  +*        .            .
  4.200E-05  1.001E+00 .            .            .  +*        .            .
  4.300E-05  1.001E+00 .            .            .  +*        .            .
  4.400E-05  1.001E+00 .            .            .   X        .            .
  4.500E-05  1.001E+00 .            .            .   +*       .            .
  4.600E-05  1.001E+00 .            .            .   +*       .            .
  4.700E-05  1.001E+00 .            .            .   +*       .            .
  4.800E-05  1.001E+00 .            .            .   +*       .            .
  4.900E-05  1.001E+00 .            .            .   +*       .            .
  5.000E-05  1.001E+00 .            .            .   +*       .            .
  5.100E-05  1.001E+00 .            .            .   +*       .            .
  5.200E-05  1.001E+00 .            .            .   +*       .            .
  5.300E-05  1.001E+00 .            .            .   +*       .            .
  5.400E-05  1.001E+00 .            .            .   +*       .            .
  5.500E-05  1.001E+00 .            .            .   + *      .            .
  5.600E-05  1.001E+00 .            .            .   + *      .            .
  5.700E-05  1.001E+00 .            .            .    +*      .            .
  5.800E-05  1.001E+00 .            .            .    +*      .            .
  5.900E-05  1.001E+00 .            .            .    +*      .            .
  6.000E-05  1.001E+00 .            .            .    +*      .            .
  6.100E-05  1.001E+00 .            .            .    +*      .            .
  6.200E-05  1.001E+00 .            .            .    +*      .            .
  6.300E-05  1.001E+00 .            .            .    +*      .            .
  6.400E-05  1.001E+00 .            .            .    +*      .            .
  6.500E-05  1.001E+00 .            .            .    +*      .            .
  6.600E-05  1.001E+00 .            .            .    + *     .            .
  6.700E-05  1.001E+00 .            .            .    + *     .            .
  6.800E-05  1.001E+00 .            .            .    + *     .            .
  6.900E-05  1.001E+00 .            .            .    + *     .            .
  7.000E-05  1.001E+00 .            .            .     +*     .            .
  7.100E-05  1.001E+00 .            .            .     +*     .            .
  7.200E-05  1.001E+00 .            .            .     +*     .            .
  7.300E-05  1.001E+00 .            .            .     +*     .            .
  7.400E-05  1.001E+00 .            .            .     +*     .            .
  7.500E-05  1.001E+00 .            .            .     +*     .            .
  7.600E-05  1.001E+00 .            .            .     +*     .            .
  7.700E-05  1.001E+00 .            .            .     + *    .            .
  7.800E-05  1.001E+00 .            .            .     + *    .            .
  7.900E-05  1.001E+00 .            .            .     + *    .            .
  8.000E-05  1.001E+00 .            .            .     + *    .            .
  8.100E-05  1.001E+00 .            .            .     + *    .            .
  8.200E-05  1.001E+00 .            .            .     + *    .            .
  8.300E-05  1.001E+00 .            .            .     + *    .            .
  8.400E-05  1.001E+00 .            .            .      +*    .            .
  8.500E-05  1.001E+00 .            .            .      +*    .            .
  8.600E-05  1.001E+00 .            .            .      +*    .            .
  8.700E-05  1.001E+00 .            .            .      +*    .            .
  8.800E-05  1.001E+00 .            .            .      + *   .            .
  8.900E-05  1.001E+00 .            .            .      + *   .            .
  9.000E-05  1.001E+00 .            .            .      + *   .            .
  9.100E-05  1.001E+00 .            .            .      + *   .            .
  9.200E-05  1.001E+00 .            .            .      + *   .            .
  9.300E-05  1.001E+00 .            .            .      + *   .            .
  9.400E-05  1.001E+00 .            .            .      + *   .            .
  9.500E-05  1.001E+00 .            .            .      + *   .            .
  9.600E-05  1.001E+00 .            .            .      + *   .            .
  9.700E-05  1.001E+00 .            .            .      + *   .            .
  9.800E-05  1.001E+00 .            .            .       +*   .            .
  9.900E-05  1.001E+00 .            .            .       +*   .            .
  1.000E-04  1.001E+00 .            .            .       + *  .            .
  1.010E-04  1.001E+00 .            .            .       + *  .            .
  1.020E-04  1.002E+00 .            .            .       + *  .            .
  1.030E-04  1.002E+00 .            .            .       + *  .            .
  1.040E-04  1.002E+00 .            .            .       + *  .            .
  1.050E-04  1.002E+00 .            .            .       + *  .            .
  1.060E-04  1.002E+00 .            .            .       + *  .            .
  1.070E-04  1.002E+00 .            .            .       + *  .            .
  1.080E-04  1.002E+00 .            .            .       + *  .            .
  1.090E-04  1.002E+00 .            .            .       + *  .            .
  1.100E-04  1.002E+00 .            .            .       + *  .            .
  1.110E-04  1.002E+00 .            .            .       + *  .            .
  1.120E-04  1.002E+00 .            .            .       +  * .            .
  1.130E-04  1.002E+00 .            .            .       +  * .            .
  1.140E-04  1.002E+00 .            .            .        + * .            .
  1.150E-04  1.002E+00 .            .            .        + * .            .
  1.160E-04  1.002E+00 .            .            .        + * .            .
  1.170E-04  1.002E+00 .            .            .        + * .            .
  1.180E-04  1.002E+00 .            .            .        + * .            .
  1.190E-04  1.002E+00 .            .            .        + * .            .
  1.200E-04  1.002E+00 .            .            .        + * .            .
  1.210E-04  1.002E+00 .            .            .        + * .            .
  1.220E-04  1.002E+00 .            .            .        + * .            .
  1.230E-04  1.002E+00 .            .            .        + * .            .
  1.240E-04  1.002E+00 .            .            .        + * .            .
  1.250E-04  1.002E+00 .            .            .        + * .            .
  1.260E-04  1.002E+00 .            .            .        +  *.            .
  1.270E-04  1.002E+00 .            .            .        +  *.            .
  1.280E-04  1.002E+00 .            .            .        +  *.            .
  1.290E-04  1.002E+00 .            .            .        +  *.            .
  1.300E-04  1.002E+00 .            .            .        +  *.            .
  1.310E-04  1.002E+00 .            .            .         + *.            .
  1.320E-04  1.002E+00 .            .            .         + *.            .
  1.330E-04  1.002E+00 .            .            .         + *.            .
  1.340E-04  1.002E+00 .            .            .         + *.            .
  1.350E-04  1.002E+00 .            .            .         + *.            .
  1.360E-04  1.002E+00 .            .            .         + *.            .
  1.370E-04  1.002E+00 .            .            .         + *.            .
  1.380E-04  1.002E+00 .            .            .         + *.            .
  1.390E-04  1.002E+00 .            .            .         + *.            .
  1.400E-04  1.002E+00 .            .            .         +  *            .
  1.410E-04  1.002E+00 .            .            .         +  *            .
  1.420E-04  1.002E+00 .            .            .         +  *            .
  1.430E-04  1.002E+00 .            .            .         +  *            .
  1.440E-04  1.002E+00 .            .            .         +  *            .
  1.450E-04  1.002E+00 .            .            .         +  *            .
  1.460E-04  1.002E+00 .            .            .         +  *            .
  1.470E-04  1.002E+00 .            .            .         +  *            .
  1.480E-04  1.002E+00 .            .            .         +  *            .
  1.490E-04  1.002E+00 .            .            .         +  *            .
  1.500E-04  1.002E+00 .            .            .          + *            .
  1.510E-04  1.002E+00 .            .            .          + *            .
  1.520E-04  1.002E+00 .            .            .          + *            .
  1.530E-04  1.002E+00 .            .            .          + *            .
  1.540E-04  1.002E+00 .            .            .          + *            .
  1.550E-04  1.002E+00 .            .            .          + *            .
  1.560E-04  1.002E+00 .            .            .          + *            .
  1.570E-04  1.002E+00 .            .            .          + .*           .
  1.580E-04  1.002E+00 .            .            .          + .*           .
  1.590E-04  1.002E+00 .            .            .          + .*           .
  1.600E-04  1.002E+00 .            .            .          + .*           .
  1.610E-04  1.002E+00 .            .            .          + .*           .
  1.620E-04  1.002E+00 .            .            .          + .*           .
  1.630E-04  1.002E+00 .            .            .          + .*           .
  1.640E-04  1.002E+00 .            .            .          + .*           .
  1.650E-04  1.002E+00 .            .            .          + .*           .
  1.660E-04  1.002E+00 .            .            .          + .*           .
  1.670E-04  1.002E+00 .            .            .          + .*           .
  1.680E-04  1.002E+00 .            .            .          + .*           .
  1.690E-04  1.002E+00 .            .            .          + .*           .
  1.700E-04  1.002E+00 .            .            .          + .*           .
  1.710E-04  1.002E+00 .            .            .          + .*           .
  1.720E-04  1.002E+00 .            .            .          + .*           .
  1.730E-04  1.002E+00 .            .            .           +.*           .
  1.740E-04  1.002E+00 .            .            .           +.*           .
  1.750E-04  1.002E+00 .            .            .           +.*           .
  1.760E-04  1.002E+00 .            .            .           +. *          .
  1.770E-04  1.002E+00 .            .            .           +. *          .
  1.780E-04  1.002E+00 .            .            .           +. *          .
  1.790E-04  1.002E+00 .            .            .           +. *          .
  1.800E-04  1.002E+00 .            .            .           +. *          .
  1.810E-04  1.002E+00 .            .            .           +. *          .
  1.820E-04  1.002E+00 .            .            .           +. *          .
  1.830E-04  1.002E+00 .            .            .           +. *          .
  1.840E-04  1.002E+00 .            .            .           +. *          .
  1.850E-04  1.002E+00 .            .            .           +. *          .
  1.860E-04  1.002E+00 .            .            .           +. *          .
  1.870E-04  1.002E+00 .            .            .           +. *          .
  1.880E-04  1.002E+00 .            .            .           +. *          .
  1.890E-04  1.002E+00 .            .            .           +. *          .
  1.900E-04  1.002E+00 .            .            .           +. *          .
  1.910E-04  1.002E+00 .            .            .           +. *          .
  1.920E-04  1.002E+00 .            .            .           +. *          .
  1.930E-04  1.002E+00 .            .            .           +. *          .
  1.940E-04  1.002E+00 .            .            .           +. *          .
  1.950E-04  1.002E+00 .            .            .           +. *          .
  1.960E-04  1.002E+00 .            .            .           +. *          .
  1.970E-04  1.002E+00 .            .            .           +. *          .
  1.980E-04  1.002E+00 .            .            .           +. *          .
  1.990E-04  1.002E+00 .            .            .           +. *          .
  2.000E-04  1.002E+00 .            .            .           +. *          .
  2.010E-04  1.002E+00 .            .            .           +. *          .
  2.020E-04  1.002E+00 .            .            .           +.  *         .
  2.030E-04  1.002E+00 .            .            .           +.  *         .
  2.040E-04  1.002E+00 .            .            .           +.  *         .
  2.050E-04  1.002E+00 .            .            .           +.  *         .
  2.060E-04  1.002E+00 .            .            .            +  *         .
  2.070E-04  1.002E+00 .            .            .            +  *         .
  2.080E-04  1.002E+00 .            .            .            +  *         .
  2.090E-04  1.002E+00 .            .            .            +  *         .
  2.100E-04  1.002E+00 .            .            .            +  *         .
  2.110E-04  1.002E+00 .            .            .            +  *         .
  2.120E-04  1.002E+00 .            .            .            +  *         .
  2.130E-04  1.002E+00 .            .            .            +  *         .
  2.140E-04  1.002E+00 .            .            .            +  *         .
  2.150E-04  1.002E+00 .            .            .            +  *         .
  2.160E-04  1.002E+00 .            .            .            +  *         .
  2.170E-04  1.002E+00 .            .            .            +  *         .
  2.180E-04  1.002E+00 .            .            .            +  *         .
  2.190E-04  1.002E+00 .            .            .            +  *         .
  2.200E-04  1.002E+00 .            .            .            +  *         .
  2.210E-04  1.002E+00 .            .            .            +  *         .
  2.220E-04  1.002E+00 .            .            .            +  *         .
  2.230E-04  1.002E+00 .            .            .            +  *         .
  2.240E-04  1.002E+00 .            .            .            +  *         .
  2.250E-04  1.002E+00 .            .            .            +  *         .
  2.260E-04  1.002E+00 .            .            .            +  *         .
  2.270E-04  1.002E+00 .            .            .            +  *         .
  2.280E-04  1.002E+00 .            .            .            +  *         .
  2.290E-04  1.002E+00 .            .            .            +  *         .
  2.300E-04  1.002E+00 .            .            .            +  *         .
  2.310E-04  1.002E+00 .            .            .            +  *         .
  2.320E-04  1.002E+00 .            .            .            +  *         .
  2.330E-04  1.002E+00 .            .            .            +  *         .
  2.340E-04  1.002E+00 .            .            .            +  *         .
