
**** 11/13/15 00:40:28 ****** PSpice Lite (October 2012) ****** ID# 10813 ****

 Inverting Amplifier


 ****     CIRCUIT DESCRIPTION


******************************************************************************



**CIRCUIT DESCRIPTION**
*POWER SUPPLY*
Vin 5 0 PULSE(-5m 5m 0 10u 10u 0.49m 1m)

*ELEMENTS*
R1 0 2 10K
R2 5 1 10K
R3 2 3 100K
RL 3 0 1K
X1 1 2 3 OPAMP

**ANALYSIS REQUUEST**
.TRAN 1u 5m 0 1u

**OUTPUT REQUEST**
.PLOT TRAN V(1,0), V(5,0)
.PROBE


*             non-inverting input
*             | inverting input
*             | | output
*             | | |
.SUBCKT OPAMP 1 2 3


*CIRCUIT DESCRIPTION

*SOURCE
EV3 4 0 1 2 10K
Rin 1 2 1MEG
Rout 4 3 50


.ENDS OPAMP


.END

**** 11/13/15 00:40:28 ****** PSpice Lite (October 2012) ****** ID# 10813 ****

 Inverting Amplifier


 ****     INITIAL TRANSIENT SOLUTION       TEMPERATURE =   27.000 DEG C


******************************************************************************



 NODE   VOLTAGE     NODE   VOLTAGE     NODE   VOLTAGE     NODE   VOLTAGE


(    1)    -.0050  (    2)    -.0050  (    3)    -.0549  (    5)    -.0050      

( X1.4)    -.0577  




    VOLTAGE SOURCE CURRENTS
    NAME         CURRENT

    Vin          5.771E-12

    TOTAL POWER DISSIPATION   2.89E-14  WATTS


**** 11/13/15 00:40:28 ****** PSpice Lite (October 2012) ****** ID# 10813 ****

 Inverting Amplifier


 ****     TRANSIENT ANALYSIS               TEMPERATURE =   27.000 DEG C


******************************************************************************



 LEGEND:

*: V(1,0)
+: V(5,0)

  TIME        V(1,0)      
(*+)---------   -1.0000E-02  -5.0000E-03   0.0000E+00   5.0000E-03   1.0000E-02
                       _ _ _ _ _ _ _ _ _ _ _ _ _ _ _ _ _ _ _ _ _ _ _ _ _ _ _
  0.000E+00 -5.000E-03 .            X            .            .            .
  1.000E-06 -4.000E-03 .            .  X         .            .            .
  2.000E-06 -3.000E-03 .            .    X       .            .            .
  3.000E-06 -2.000E-03 .            .       X    .            .            .
  4.000E-06 -1.000E-03 .            .         X  .            .            .
  5.000E-06  5.582E-11 .            .            X            .            .
  6.000E-06  1.000E-03 .            .            .  X         .            .
  7.000E-06  2.000E-03 .            .            .    X       .            .
  8.000E-06  3.000E-03 .            .            .       X    .            .
  9.000E-06  4.000E-03 .            .            .         X  .            .
  1.000E-05  5.000E-03 .            .            .            X            .
  1.100E-05  5.000E-03 .            .            .            X            .
  1.200E-05  5.000E-03 .            .            .            X            .
  1.300E-05  5.000E-03 .            .            .            X            .
  1.400E-05  5.000E-03 .            .            .            X            .
  1.500E-05  5.000E-03 .            .            .            X            .
  1.600E-05  5.000E-03 .            .            .            X            .
  1.700E-05  5.000E-03 .            .            .            X            .
  1.800E-05  5.000E-03 .            .            .            X            .
  1.900E-05  5.000E-03 .            .            .            X            .
  2.000E-05  5.000E-03 .            .            .            X            .
  2.100E-05  5.000E-03 .            .            .            X            .
  2.200E-05  5.000E-03 .            .            .            X            .
  2.300E-05  5.000E-03 .            .            .            X            .
  2.400E-05  5.000E-03 .            .            .            X            .
  2.500E-05  5.000E-03 .            .            .            X            .
  2.600E-05  5.000E-03 .            .            .            X            .
  2.700E-05  5.000E-03 .            .            .            X            .
  2.800E-05  5.000E-03 .            .            .            X            .
  2.900E-05  5.000E-03 .            .            .            X            .
  3.000E-05  5.000E-03 .            .            .            X            .
  3.100E-05  5.000E-03 .            .            .            X            .
  3.200E-05  5.000E-03 .            .            .            X            .
  3.300E-05  5.000E-03 .            .            .            X            .
  3.400E-05  5.000E-03 .            .            .            X            .
  3.500E-05  5.000E-03 .            .            .            X            .
  3.600E-05  5.000E-03 .            .            .            X            .
  3.700E-05  5.000E-03 .            .            .            X            .
  3.800E-05  5.000E-03 .            .            .            X            .
  3.900E-05  5.000E-03 .            .            .            X            .
  4.000E-05  5.000E-03 .            .            .            X            .
  4.100E-05  5.000E-03 .            .            .            X            .
  4.200E-05  5.000E-03 .            .            .            X            .
  4.300E-05  5.000E-03 .            .            .            X            .
  4.400E-05  5.000E-03 .            .            .            X            .
  4.500E-05  5.000E-03 .            .            .            X            .
  4.600E-05  5.000E-03 .            .            .            X            .
  4.700E-05  5.000E-03 .            .            .            X            .
  4.800E-05  5.000E-03 .            .            .            X            .
  4.900E-05  5.000E-03 .            .            .            X            .
  5.000E-05  5.000E-03 .            .            .            X            .
  5.100E-05  5.000E-03 .            .            .            X            .
  5.200E-05  5.000E-03 .            .            .            X            .
  5.300E-05  5.000E-03 .            .            .            X            .
  5.400E-05  5.000E-03 .            .            .            X            .
  5.500E-05  5.000E-03 .            .            .            X            .
  5.600E-05  5.000E-03 .            .            .            X            .
  5.700E-05  5.000E-03 .            .            .            X            .
  5.800E-05  5.000E-03 .            .            .            X            .
  5.900E-05  5.000E-03 .            .            .            X            .
  6.000E-05  5.000E-03 .            .            .            X            .
  6.100E-05  5.000E-03 .            .            .            X            .
  6.200E-05  5.000E-03 .            .            .            X            .
  6.300E-05  5.000E-03 .            .            .            X            .
  6.400E-05  5.000E-03 .            .            .            X            .
  6.500E-05  5.000E-03 .            .            .            X            .
  6.600E-05  5.000E-03 .            .            .            X            .
  6.700E-05  5.000E-03 .            .            .            X            .
  6.800E-05  5.000E-03 .            .            .            X            .
  6.900E-05  5.000E-03 .            .            .            X            .
  7.000E-05  5.000E-03 .            .            .            X            .
  7.100E-05  5.000E-03 .            .            .            X            .
  7.200E-05  5.000E-03 .            .            .            X            .
  7.300E-05  5.000E-03 .            .            .            X            .
  7.400E-05  5.000E-03 .            .            .            X            .
  7.500E-05  5.000E-03 .            .            .            X            .
  7.600E-05  5.000E-03 .            .            .            X            .
  7.700E-05  5.000E-03 .            .            .            X            .
  7.800E-05  5.000E-03 .            .            .            X            .
  7.900E-05  5.000E-03 .            .            .            X            .
  8.000E-05  5.000E-03 .            .            .            X            .
  8.100E-05  5.000E-03 .            .            .            X            .
  8.200E-05  5.000E-03 .            .            .            X            .
  8.300E-05  5.000E-03 .            .            .            X            .
  8.400E-05  5.000E-03 .            .            .            X            .
  8.500E-05  5.000E-03 .            .            .            X            .
  8.600E-05  5.000E-03 .            .            .            X            .
  8.700E-05  5.000E-03 .            .            .            X            .
  8.800E-05  5.000E-03 .            .            .            X            .
  8.900E-05  5.000E-03 .            .            .            X            .
  9.000E-05  5.000E-03 .            .            .            X            .
  9.100E-05  5.000E-03 .            .            .            X            .
  9.200E-05  5.000E-03 .            .            .            X            .
  9.300E-05  5.000E-03 .            .            .            X            .
  9.400E-05  5.000E-03 .            .            .            X            .
  9.500E-05  5.000E-03 .            .            .            X            .
  9.600E-05  5.000E-03 .            .            .            X            .
  9.700E-05  5.000E-03 .            .            .            X            .
  9.800E-05  5.000E-03 .            .            .            X            .
  9.900E-05  5.000E-03 .            .            .            X            .
  1.000E-04  5.000E-03 .            .            .            X            .
  1.010E-04  5.000E-03 .            .            .            X            .
  1.020E-04  5.000E-03 .            .            .            X            .
  1.030E-04  5.000E-03 .            .            .            X            .
  1.040E-04  5.000E-03 .            .            .            X            .
  1.050E-04  5.000E-03 .            .            .            X            .
  1.060E-04  5.000E-03 .            .            .            X            .
  1.070E-04  5.000E-03 .            .            .            X            .
  1.080E-04  5.000E-03 .            .            .            X            .
  1.090E-04  5.000E-03 .            .            .            X            .
  1.100E-04  5.000E-03 .            .            .            X            .
  1.110E-04  5.000E-03 .            .            .            X            .
  1.120E-04  5.000E-03 .            .            .            X            .
  1.130E-04  5.000E-03 .            .            .            X            .
  1.140E-04  5.000E-03 .            .            .            X            .
  1.150E-04  5.000E-03 .            .            .            X            .
  1.160E-04  5.000E-03 .            .            .            X            .
  1.170E-04  5.000E-03 .            .            .            X            .
  1.180E-04  5.000E-03 .            .            .            X            .
  1.190E-04  5.000E-03 .            .            .            X            .
  1.200E-04  5.000E-03 .            .            .            X            .
  1.210E-04  5.000E-03 .            .            .            X            .
  1.220E-04  5.000E-03 .            .            .            X            .
  1.230E-04  5.000E-03 .            .            .            X            .
  1.240E-04  5.000E-03 .            .            .            X            .
  1.250E-04  5.000E-03 .            .            .            X            .
  1.260E-04  5.000E-03 .            .            .            X            .
  1.270E-04  5.000E-03 .            .            .            X            .
  1.280E-04  5.000E-03 .            .            .            X            .
  1.290E-04  5.000E-03 .            .            .            X            .
  1.300E-04  5.000E-03 .            .            .            X            .
  1.310E-04  5.000E-03 .            .            .            X            .
  1.320E-04  5.000E-03 .            .            .            X            .
  1.330E-04  5.000E-03 .            .            .            X            .
  1.340E-04  5.000E-03 .            .            .            X            .
  1.350E-04  5.000E-03 .            .            .            X            .
  1.360E-04  5.000E-03 .            .            .            X            .
  1.370E-04  5.000E-03 .            .            .            X            .
  1.380E-04  5.000E-03 .            .            .            X            .
  1.390E-04  5.000E-03 .            .            .            X            .
  1.400E-04  5.000E-03 .            .            .            X            .
  1.410E-04  5.000E-03 .            .            .            X            .
  1.420E-04  5.000E-03 .            .            .            X            .
  1.430E-04  5.000E-03 .            .            .            X            .
  1.440E-04  5.000E-03 .            .            .            X            .
  1.450E-04  5.000E-03 .            .            .            X            .
  1.460E-04  5.000E-03 .            .            .            X            .
  1.470E-04  5.000E-03 .            .            .            X            .
  1.480E-04  5.000E-03 .            .            .            X            .
  1.490E-04  5.000E-03 .            .            .            X            .
  1.500E-04  5.000E-03 .            .            .            X            .
  1.510E-04  5.000E-03 .            .            .            X            .
  1.520E-04  5.000E-03 .            .            .            X            .
  1.530E-04  5.000E-03 .            .            .            X            .
  1.540E-04  5.000E-03 .            .            .            X            .
  1.550E-04  5.000E-03 .            .            .            X            .
  1.560E-04  5.000E-03 .            .            .            X            .
  1.570E-04  5.000E-03 .            .            .            X            .
  1.580E-04  5.000E-03 .            .            .            X            .
  1.590E-04  5.000E-03 .            .            .            X            .
  1.600E-04  5.000E-03 .            .            .            X            .
  1.610E-04  5.000E-03 .            .            .            X            .
  1.620E-04  5.000E-03 .            .            .            X            .
  1.630E-04  5.000E-03 .            .            .            X            .
  1.640E-04  5.000E-03 .            .            .            X            .
  1.650E-04  5.000E-03 .            .            .            X            .
  1.660E-04  5.000E-03 .            .            .            X            .
  1.670E-04  5.000E-03 .            .            .            X            .
  1.680E-04  5.000E-03 .            .            .            X            .
  1.690E-04  5.000E-03 .            .            .            X            .
  1.700E-04  5.000E-03 .            .            .            X            .
  1.710E-04  5.000E-03 .            .            .            X            .
  1.720E-04  5.000E-03 .            .            .            X            .
  1.730E-04  5.000E-03 .            .            .            X            .
  1.740E-04  5.000E-03 .            .            .            X            .
  1.750E-04  5.000E-03 .            .            .            X            .
  1.760E-04  5.000E-03 .            .            .            X            .
  1.770E-04  5.000E-03 .            .            .            X            .
  1.780E-04  5.000E-03 .            .            .            X            .
  1.790E-04  5.000E-03 .            .            .            X            .
  1.800E-04  5.000E-03 .            .            .            X            .
  1.810E-04  5.000E-03 .            .            .            X            .
  1.820E-04  5.000E-03 .            .            .            X            .
  1.830E-04  5.000E-03 .            .            .            X            .
  1.840E-04  5.000E-03 .            .            .            X            .
  1.850E-04  5.000E-03 .            .            .            X            .
  1.860E-04  5.000E-03 .            .            .            X            .
  1.870E-04  5.000E-03 .            .            .            X            .
  1.880E-04  5.000E-03 .            .            .            X            .
  1.890E-04  5.000E-03 .            .            .            X            .
  1.900E-04  5.000E-03 .            .            .            X            .
  1.910E-04  5.000E-03 .            .            .            X            .
  1.920E-04  5.000E-03 .            .            .            X            .
  1.930E-04  5.000E-03 .            .            .            X            .
  1.940E-04  5.000E-03 .            .            .            X            .
  1.950E-04  5.000E-03 .            .            .            X            .
  1.960E-04  5.000E-03 .            .            .            X            .
  1.970E-04  5.000E-03 .            .            .            X            .
  1.980E-04  5.000E-03 .            .            .            X            .
  1.990E-04  5.000E-03 .            .            .            X            .
  2.000E-04  5.000E-03 .            .            .            X            .
  2.010E-04  5.000E-03 .            .            .            X            .
  2.020E-04  5.000E-03 .            .            .            X            .
  2.030E-04  5.000E-03 .            .            .            X            .
  2.040E-04  5.000E-03 .            .            .            X            .
  2.050E-04  5.000E-03 .            .            .            X            .
  2.060E-04  5.000E-03 .            .            .            X            .
  2.070E-04  5.000E-03 .            .            .            X            .
  2.080E-04  5.000E-03 .            .            .            X            .
  2.090E-04  5.000E-03 .            .            .            X            .
  2.100E-04  5.000E-03 .            .            .            X            .
  2.110E-04  5.000E-03 .            .            .            X            .
  2.120E-04  5.000E-03 .            .            .            X            .
  2.130E-04  5.000E-03 .            .            .            X            .
  2.140E-04  5.000E-03 .            .            .            X            .
  2.150E-04  5.000E-03 .            .            .            X            .
  2.160E-04  5.000E-03 .            .            .            X            .
  2.170E-04  5.000E-03 .            .            .            X            .
  2.180E-04  5.000E-03 .            .            .            X            .
  2.190E-04  5.000E-03 .            .            .            X            .
  2.200E-04  5.000E-03 .            .            .            X            .
  2.210E-04  5.000E-03 .            .            .            X            .
  2.220E-04  5.000E-03 .            .            .            X            .
  2.230E-04  5.000E-03 .            .            .            X            .
  2.240E-04  5.000E-03 .            .            .            X            .
  2.250E-04  5.000E-03 .            .            .            X            .
  2.260E-04  5.000E-03 .            .            .            X            .
  2.270E-04  5.000E-03 .            .            .            X            .
  2.280E-04  5.000E-03 .            .            .            X            .
  2.290E-04  5.000E-03 .            .            .            X            .
  2.300E-04  5.000E-03 .            .            .            X            .
  2.310E-04  5.000E-03 .            .            .            X            .
  2.320E-04  5.000E-03 .            .            .            X            .
  2.330E-04  5.000E-03 .            .            .            X            .
  2.340E-04  5.000E-03 .            .            .            X            .
  2.350E-04  5.000E-03 .            .            .            X            .
  2.360E-04  5.000E-03 .            .            .            X            .
