
**** 12/07/15 22:55:21 ******* PSpice Lite (April 2011) ******* ID# 10813 ****

 *CASCODE AMPLIFIER*


 ****     CIRCUIT DESCRIPTION


******************************************************************************



Vdd 5 0 DC 15
*Vtst 1 0 ac 1m 0
Vsig 1 0 sin 0 0.00 50K 0 0

*RESISTOR ELEMENTS*
Rsig 1 2 1K 
R1 3 0 180K
R2 4 3 56K 
R3 5 4 270K 
RC 5 6 3.9K 
RE 8 0 3.3K 
RL 9 0 1K 

*CAPACITOR ELEMENTS*
C1 3 2 3.3u 
CB 4 0 4.7u  
C2 9 6 3.3u 
CE 8 0 100u 

*BJT*
Q1 7 3 8 QMPS2222A
Q2 6 4 7 QMPS2222A


*MODEL SPECIFICATION*
*MPS2222A MCE 1/26/96
*Si 625mW 40V 600mA 300MHz pkg:TO-92 1,2,3
.MODEL QMPS2222A NPN (IS=.504F NF=1 BF=339 VAF=113 IKF=.36 ISE=1.63P NE=2
+ BR=4 NR=1 VAR=24 IKR=.54 RE=.173 RB=.692 RC=69.2M XTB=1.5
+ CJE=23.5P VJE=1.1 MJE=.5 CJC=10.6P VJC=.3 MJC=.3 TF=521P TR=272N)

*ANALYSIS REQUEST*

.op
*.ac dec 10 1  10G      
.tran 1n 0.1m

*OUTPUT REQUEST*
.probe  

.end

**** 12/07/15 22:55:21 ******* PSpice Lite (April 2011) ******* ID# 10813 ****

 *CASCODE AMPLIFIER*


 ****     BJT MODEL PARAMETERS


******************************************************************************




               QMPS2222A       
               NPN             
       LEVEL    1            
          IS  504.000000E-18 
          BF  339            
          NF    1            
         VAF  113            
         IKF     .36         
         ISE    1.630000E-12 
          NE    2            
          BR    4            
          NR    1            
         VAR   24            
         IKR     .54         
         ISS    0            
          RB     .692        
          RE     .173        
          RC     .0692       
         CJE   23.500000E-12 
         VJE    1.1          
         MJE     .5          
         CJC   10.600000E-12 
         VJC     .3          
         MJC     .3          
        XCJC    1            
         CJS    0            
         VJS     .75         
          TF  521.000000E-12 
          TR  272.000000E-09 
         XTB    1.5          
          KF    0            
          AF    1            
          CN    2.42         
           D     .87         


**** 12/07/15 22:55:21 ******* PSpice Lite (April 2011) ******* ID# 10813 ****

 *CASCODE AMPLIFIER*


 ****     SMALL SIGNAL BIAS SOLUTION       TEMPERATURE =   27.000 DEG C


******************************************************************************



 NODE   VOLTAGE     NODE   VOLTAGE     NODE   VOLTAGE     NODE   VOLTAGE


(    1)    0.0000  (    2)    0.0000  (    3)    4.1835  (    4)    5.7941      

(    5)   15.0000  (    6)   10.9660  (    7)    5.0610  (    8)    3.4492      

(    9)    0.0000  




    VOLTAGE SOURCE CURRENTS
    NAME         CURRENT

    Vdd         -1.068E-03
    Vsig         0.000E+00

    TOTAL POWER DISSIPATION   1.60E-02  WATTS


**** 12/07/15 22:55:21 ******* PSpice Lite (April 2011) ******* ID# 10813 ****

 *CASCODE AMPLIFIER*


 ****     OPERATING POINT INFORMATION      TEMPERATURE =   27.000 DEG C


******************************************************************************






**** BIPOLAR JUNCTION TRANSISTORS


NAME         Q1          Q2        
MODEL        QMPS2222A   QMPS2222A 
IB           5.52E-06    5.33E-06 
IC           1.04E-03    1.03E-03 
VBE          7.34E-01    7.33E-01 
VBC         -8.78E-01   -5.17E+00 
VCE          1.61E+00    5.91E+00 
BETADC       1.88E+02    1.94E+02 
GM           4.00E-02    3.98E-02 
RPI          5.97E+03    6.20E+03 
RX           6.92E-01    6.92E-01 
RO           1.06E+05    1.11E+05 
CBE          5.97E-11    5.95E-11 
CBC          7.03E-12    4.44E-12 
CJS          0.00E+00    0.00E+00 
BETAAC       2.39E+02    2.47E+02 
CBX/CBX2     0.00E+00    0.00E+00 
FT/FT2       9.55E+07    9.91E+07 


**** 12/07/15 22:55:21 ******* PSpice Lite (April 2011) ******* ID# 10813 ****

 *CASCODE AMPLIFIER*


 ****     INITIAL TRANSIENT SOLUTION       TEMPERATURE =   27.000 DEG C


******************************************************************************



 NODE   VOLTAGE     NODE   VOLTAGE     NODE   VOLTAGE     NODE   VOLTAGE


(    1)    0.0000  (    2)    0.0000  (    3)    4.1835  (    4)    5.7941      

(    5)   15.0000  (    6)   10.9660  (    7)    5.0610  (    8)    3.4492      

(    9)    0.0000  




    VOLTAGE SOURCE CURRENTS
    NAME         CURRENT

    Vdd         -1.068E-03
    Vsig         0.000E+00

    TOTAL POWER DISSIPATION   1.60E-02  WATTS



          JOB CONCLUDED

**** 12/07/15 22:55:21 ******* PSpice Lite (April 2011) ******* ID# 10813 ****

 *CASCODE AMPLIFIER*


 ****     JOB STATISTICS SUMMARY


******************************************************************************



  Total job time (using Solver 1)   =        0.00
